
T5184 000:283 SEGGER J-Link V5.10i Log File (0000ms, 0267ms total)
T5184 000:283 DLL Compiled: Jan 28 2016 09:38:53 (0000ms, 0267ms total)
T5184 000:283 Logging started @ 2019-03-02 20:42 (0000ms, 0267ms total)
T5184 000:283 JLINK_SetWarnOutHandler(...) (0000ms, 0267ms total)
T5184 000:283 JLINK_OpenEx(...)
Firmware: J-Link ARM V8 compiled Nov 28 2014 13:44:46
Hardware: V8.00
Feature(s): RDI,FlashDL,FlashBP,JFlash,GDBFull  returns O.K. (0267ms, 0534ms total)
T5184 000:550 JLINK_SetErrorOutHandler(...) (0000ms, 0534ms total)
T5184 000:550 JLINK_ExecCommand("ProjectFile = "C:\Users\SO\Desktop\trash\stm32\2\18-3 Color LCD - for STM32F103RET -changed startup for new stm32103re new better  working_For ili9320 2.8 tft  COPY SIMPLE add touch\JLinkSettings.ini"", ...)  returns 0x00 (0001ms, 0535ms total)
T5184 000:564 JLINK_ExecCommand("Device = STM32F103RE", ...)Device "STM32F103RE" selected.  returns 0x00 (0005ms, 0540ms total)
T5184 000:569 JLINK_ExecCommand("DisableConnectionTimeout", ...)  returns 0x01 (0000ms, 0540ms total)
T5184 000:569 JLINK_GetHardwareVersion()  returns 0x13880 (0000ms, 0540ms total)
T5184 000:569 JLINK_GetDLLVersion()  returns 51009 (0001ms, 0541ms total)
T5184 000:570 JLINK_GetFirmwareString(...) (0000ms, 0541ms total)
T5184 000:584 JLINK_GetDLLVersion()  returns 51009 (0000ms, 0541ms total)
T5184 000:584 JLINK_GetCompileDateTime() (0000ms, 0541ms total)
T5184 000:589 JLINK_GetFirmwareString(...) (0000ms, 0541ms total)
T5184 000:594 JLINK_GetHardwareVersion()  returns 0x13880 (0000ms, 0541ms total)
T5184 000:605 JLINK_TIF_Select(JLINKARM_TIF_SWD)  returns 0x00 (0001ms, 0542ms total)
T5184 000:606 JLINK_SetSpeed(1000) (0000ms, 0542ms total)
T5184 000:606 JLINK_GetId() >0x108 TIF>Found SWD-DP with ID 0x1BA01477 >0x0D TIF> >0x28 TIF> >0x0D TIF> >0x28 TIF> >0x0D TIF> >0x28 TIF> >0x0D TIF> >0x28 TIF> >0x0D TIF> >0x21 TIF> >0x0D TIF> >0x28 TIF> >0x0D TIF> >0x28 TIF> >0x0D TIF> >0x28 TIF> >0x0D TIF> >0x21 TIF> >0x0D TIF> >0x21 TIF> >0x0D TIF> >0x28 TIF> >0x0D TIF> >0x21 TIF> >0x0D TIF> >0x21 TIF> >0x0D TIF> >0x28 TIF> >0x0D TIF> >0x21 TIF> >0x0D TIF> >0x21 TIF> >0x0D TIF> >0x28 TIF> >0x0D TIF> >0x21 TIF> >0x0D TIF> >0x21 TIF> >0x108 TIF>
Found SWD-DP with ID 0x1BA01477 >0x0D TIF> >0x28 TIF> >0x0D TIF> >0x28 TIF> >0x0D TIF> >0x28 TIF> >0x0D TIF> >0x28 TIF> >0x0D TIF> >0x21 TIF> >0x0D TIF> >0x28 TIF> >0x0D TIF> >0x28 TIF> >0x0D TIF> >0x21 TIF> >0x0D TIF> >0x21 TIF> >0x0D TIF> >0x21 TIF> >0x0D TIF> >0x28 TIF> >0x0D TIF> >0x28 TIF> >0x0D TIF> >0x28 TIF> >0x0D TIF> >0x21 TIF> >0x0D TIF> >0x21 TIF> >0x0D TIF> >0x28 TIF> >0x0D TIF> >0x21 TIF> >0x0D TIF> >0x21 TIF>Found Cortex-M3 r1p1, Little endian. -- CPU_ReadMem(4 bytes @ 0xE000EDF0)
 -- CPU_ReadMem(4 bytes @ 0xE0002000)FPUnit: 6 code (BP) slots and 2 literal slots -- CPU_ReadMem(4 bytes @ 0xE000EDFC) -- CPU_ReadMem(4 bytes @ 0xE0001000) -- CPU_WriteMem(4 bytes @ 0xE0001000) -- CPU_ReadMem(4 bytes @ 0xE000ED88) -- CPU_WriteMem(4 bytes @ 0xE000ED88) -- CPU_ReadMem(4 bytes @ 0xE000ED88) -- CPU_WriteMem(4 bytes @ 0xE000ED88)CoreSight components:ROMTbl 0 @ E00FF000 -- CPU_ReadMem(16 bytes @ 0xE00FF000) -- CPU_ReadMem(16 bytes @ 0xE000EFF0) -- CPU_ReadMem(16 bytes @ 0xE000EFE0)
ROMTbl 0 [0]: FFF0F000, CID: B105E00D, PID: 001BB000 SCS -- CPU_ReadMem(16 bytes @ 0xE0001FF0) -- CPU_ReadMem(16 bytes @ 0xE0001FE0)ROMTbl 0 [1]: FFF02000, CID: B105E00D, PID: 001BB002 DWT -- CPU_ReadMem(16 bytes @ 0xE0002FF0) -- CPU_ReadMem(16 bytes @ 0xE0002FE0)ROMTbl 0 [2]: FFF03000, CID: B105E00D, PID: 000BB003 FPB -- CPU_ReadMem(16 bytes @ 0xE0000FF0) -- CPU_ReadMem(16 bytes @ 0xE0000FE0)ROMTbl 0 [3]: FFF01000, CID: B105E00D, PID: 001BB001 ITM -- CPU_ReadMem(16 bytes @ 0xE00FF010)
 -- CPU_ReadMem(16 bytes @ 0xE0040FF0) -- CPU_ReadMem(16 bytes @ 0xE0040FE0)ROMTbl 0 [4]: FFF41000, CID: B105900D, PID: 001BB923 TPIU-Lite -- CPU_ReadMem(16 bytes @ 0xE0041FF0) -- CPU_ReadMem(16 bytes @ 0xE0041FE0)ROMTbl 0 [5]: FFF42000, CID: B105900D, PID: 101BB924 ETM-M3 >0x0D TIF> >0x21 TIF>  returns 0x1BA01477 (0089ms, 0631ms total)
T5184 000:695 JLINK_GetDLLVersion()  returns 51009 (0000ms, 0631ms total)
T5184 000:695 JLINK_CORE_GetFound()  returns 0x30000FF (0000ms, 0631ms total)
T5184 000:695 JLINK_GetDebugInfo(0x100) -- Value=0xE00FF000  returns 0x00 (0000ms, 0631ms total)
T5184 000:699 JLINK_ReadMem (0xE00FF000, 0x0020 Bytes, ...) -- CPU is running -- CPU_ReadMem(32 bytes @ 0xE00FF000) - Data: 03 F0 F0 FF 03 20 F0 FF 03 30 F0 FF 03 10 F0 FF ...  returns 0x00 (0001ms, 0632ms total)
T5184 000:700 JLINK_ReadMem (0xE000EFF0, 0x0010 Bytes, ...) -- CPU is running -- CPU_ReadMem(16 bytes @ 0xE000EFF0) - Data: 0D 00 00 00 E0 00 00 00 05 00 00 00 B1 00 00 00  returns 0x00 (0000ms, 0632ms total)
T5184 000:700 JLINK_ReadMem (0xE000EFD0, 0x0020 Bytes, ...) -- CPU is running -- CPU_ReadMem(32 bytes @ 0xE000EFD0) - Data: 04 00 00 00 00 00 00 00 00 00 00 00 00 00 00 00 ...  returns 0x00 (0001ms, 0633ms total)
T5184 000:701 JLINK_ReadMem (0xE0001FF0, 0x0010 Bytes, ...) -- CPU is running -- CPU_ReadMem(16 bytes @ 0xE0001FF0) - Data: 0D 00 00 00 E0 00 00 00 05 00 00 00 B1 00 00 00  returns 0x00 (0001ms, 0634ms total)
T5184 000:702 JLINK_ReadMem (0xE0001FD0, 0x0020 Bytes, ...) -- CPU is running -- CPU_ReadMem(32 bytes @ 0xE0001FD0) - Data: 04 00 00 00 00 00 00 00 00 00 00 00 00 00 00 00 ...  returns 0x00 (0001ms, 0635ms total)
T5184 000:703 JLINK_ReadMem (0xE0002FF0, 0x0010 Bytes, ...) -- CPU is running -- CPU_ReadMem(16 bytes @ 0xE0002FF0) - Data: 0D 00 00 00 E0 00 00 00 05 00 00 00 B1 00 00 00  returns 0x00 (0001ms, 0636ms total)
T5184 000:704 JLINK_ReadMem (0xE0002FD0, 0x0020 Bytes, ...) -- CPU is running -- CPU_ReadMem(32 bytes @ 0xE0002FD0) - Data: 04 00 00 00 00 00 00 00 00 00 00 00 00 00 00 00 ...  returns 0x00 (0001ms, 0637ms total)
T5184 000:705 JLINK_ReadMem (0xE0000FF0, 0x0010 Bytes, ...) -- CPU is running -- CPU_ReadMem(16 bytes @ 0xE0000FF0) - Data: 0D 00 00 00 E0 00 00 00 05 00 00 00 B1 00 00 00  returns 0x00 (0000ms, 0637ms total)
T5184 000:705 JLINK_ReadMem (0xE0000FD0, 0x0020 Bytes, ...) -- CPU is running -- CPU_ReadMem(32 bytes @ 0xE0000FD0) - Data: 04 00 00 00 00 00 00 00 00 00 00 00 00 00 00 00 ...  returns 0x00 (0001ms, 0638ms total)
T5184 000:706 JLINK_ReadMem (0xE0040FF0, 0x0010 Bytes, ...) -- CPU is running -- CPU_ReadMem(16 bytes @ 0xE0040FF0) - Data: 0D 00 00 00 90 00 00 00 05 00 00 00 B1 00 00 00  returns 0x00 (0001ms, 0639ms total)
T5184 000:707 JLINK_ReadMem (0xE0040FD0, 0x0020 Bytes, ...) -- CPU is running -- CPU_ReadMem(32 bytes @ 0xE0040FD0) - Data: 04 00 00 00 00 00 00 00 00 00 00 00 00 00 00 00 ...  returns 0x00 (0001ms, 0640ms total)
T5184 000:708 JLINK_ReadMem (0xE0041FF0, 0x0010 Bytes, ...) -- CPU is running -- CPU_ReadMem(16 bytes @ 0xE0041FF0) - Data: 0D 00 00 00 90 00 00 00 05 00 00 00 B1 00 00 00  returns 0x00 (0001ms, 0641ms total)
T5184 000:709 JLINK_ReadMem (0xE0041FD0, 0x0020 Bytes, ...) -- CPU is running -- CPU_ReadMem(32 bytes @ 0xE0041FD0) - Data: 04 00 00 00 00 00 00 00 00 00 00 00 00 00 00 00 ...  returns 0x00 (0001ms, 0642ms total)
T5184 000:710 JLINK_ReadMemU32(0xE000ED00, 0x0001 Items, ...) -- CPU is running -- CPU_ReadMem(4 bytes @ 0xE000ED00) - Data: 31 C2 1F 41  returns 0x01 (0000ms, 0642ms total)
T5184 000:710 JLINK_SetResetType(JLINKARM_RESET_TYPE_NORMAL)  returns JLINKARM_RESET_TYPE_NORMAL (0000ms, 0642ms total)
T5184 000:710 JLINK_Reset() -- CPU is running -- CPU_WriteMem(4 bytes @ 0xE000EDF0) -- CPU is running -- CPU_WriteMem(4 bytes @ 0xE000EDFC) >0x35 TIF> -- CPU is running -- CPU_WriteMem(4 bytes @ 0xE000ED0C) -- CPU is running -- CPU_ReadMem(4 bytes @ 0xE000EDF0) -- CPU is running -- CPU_ReadMem(4 bytes @ 0xE000EDF0) -- CPU is running -- CPU_WriteMem(4 bytes @ 0xE000EDF0) -- CPU is running -- CPU_WriteMem(4 bytes @ 0xE000EDFC) -- CPU is running -- CPU_ReadMem(4 bytes @ 0xE000EDF0)
 -- CPU_WriteMem(4 bytes @ 0xE0002000) -- CPU_ReadMem(4 bytes @ 0xE000EDFC) -- CPU_ReadMem(4 bytes @ 0xE0001000) (0020ms, 0662ms total)
T5184 000:730 JLINK_Halt()  returns 0x00 (0000ms, 0662ms total)
T5184 000:730 JLINK_IsHalted()  returns TRUE (0000ms, 0662ms total)
T5184 000:730 JLINK_ReadMemU32(0xE000EDF0, 0x0001 Items, ...) -- CPU_ReadMem(4 bytes @ 0xE000EDF0) - Data: 03 00 03 00  returns 0x01 (0001ms, 0663ms total)
T5184 000:731 JLINK_WriteU32(0xE000EDF0, 0xA05F0003) -- CPU_WriteMem(4 bytes @ 0xE000EDF0)  returns 0x00 (0000ms, 0663ms total)
T5184 000:731 JLINK_WriteU32(0xE000EDFC, 0x01000000) -- CPU_WriteMem(4 bytes @ 0xE000EDFC)  returns 0x00 (0001ms, 0664ms total)
T5184 000:748 JLINK_GetHWStatus(...)  returns 0x00 (0001ms, 0665ms total)
T5184 000:762 JLINK_GetNumBPUnits(Type = 0xFFFFFF00)  returns 0x06 (0000ms, 0665ms total)
T5184 000:762 JLINK_GetNumBPUnits(Type = 0xF0)  returns 0x2000 (0000ms, 0665ms total)
T5184 000:762 JLINK_GetNumWPUnits()  returns 0x04 (0000ms, 0665ms total)
T5184 000:777 JLINK_GetSpeed()  returns 0x3E8 (0000ms, 0665ms total)
T5184 000:788 JLINK_ReadMemU32(0xE000E004, 0x0001 Items, ...) -- CPU_ReadMem(4 bytes @ 0xE000E004) - Data: 01 00 00 00  returns 0x01 (0000ms, 0665ms total)
T5184 000:788 JLINK_ReadMemU32(0xE000E004, 0x0001 Items, ...) -- CPU_ReadMem(4 bytes @ 0xE000E004) - Data: 01 00 00 00  returns 0x01 (0001ms, 0666ms total)
T5184 000:789 JLINK_WriteMem(0xE0001000, 0x001C Bytes, ...) - Data: 01 00 00 00 00 00 00 00 00 00 00 00 00 00 00 00 ... -- CPU_WriteMem(28 bytes @ 0xE0001000)  returns 0x1C (0001ms, 0667ms total)
T5184 000:790 JLINK_ReadMem (0xE0001000, 0x001C Bytes, ...) -- CPU_ReadMem(28 bytes @ 0xE0001000) - Data: 01 00 00 40 00 00 00 00 00 00 00 00 00 00 00 00 ...  returns 0x00 (0001ms, 0668ms total)
T5184 000:791 JLINK_Halt()  returns 0x00 (0000ms, 0668ms total)
T5184 000:791 JLINK_IsHalted()  returns TRUE (0000ms, 0668ms total)
T5184 000:795 JLINK_WriteMem(0x20000000, 0x0164 Bytes, ...) - Data: 00 BE 0A E0 0D 78 2D 06 68 40 08 24 40 00 00 D3 ... -- CPU_WriteMem(356 bytes @ 0x20000000)  returns 0x164 (0006ms, 0674ms total)
T5184 000:801 JLINK_WriteReg(R0, 0x08000000)  returns 0x00 (0000ms, 0674ms total)
T5184 000:801 JLINK_WriteReg(R1, 0x007A1200)  returns 0x00 (0000ms, 0674ms total)
T5184 000:801 JLINK_WriteReg(R2, 0x00000001)  returns 0x00 (0000ms, 0674ms total)
T5184 000:801 JLINK_WriteReg(R3, 0x00000000)  returns 0x00 (0000ms, 0674ms total)
T5184 000:801 JLINK_WriteReg(R4, 0x00000000)  returns 0x00 (0000ms, 0674ms total)
T5184 000:801 JLINK_WriteReg(R5, 0x00000000)  returns 0x00 (0000ms, 0674ms total)
T5184 000:801 JLINK_WriteReg(R6, 0x00000000)  returns 0x00 (0000ms, 0674ms total)
T5184 000:801 JLINK_WriteReg(R7, 0x00000000)  returns 0x00 (0000ms, 0674ms total)
T5184 000:801 JLINK_WriteReg(R8, 0x00000000)  returns 0x00 (0000ms, 0674ms total)
T5184 000:801 JLINK_WriteReg(R9, 0x20000160)  returns 0x00 (0000ms, 0674ms total)
T5184 000:801 JLINK_WriteReg(R10, 0x00000000)  returns 0x00 (0000ms, 0674ms total)
T5184 000:801 JLINK_WriteReg(R11, 0x00000000)  returns 0x00 (0000ms, 0674ms total)
T5184 000:801 JLINK_WriteReg(R12, 0x00000000)  returns 0x00 (0000ms, 0674ms total)
T5184 000:801 JLINK_WriteReg(R13 (SP), 0x20001000)  returns 0x00 (0001ms, 0675ms total)
T5184 000:802 JLINK_WriteReg(R14, 0x20000001)  returns 0x00 (0000ms, 0675ms total)
T5184 000:802 JLINK_WriteReg(R15 (PC), 0x20000038)  returns 0x00 (0000ms, 0675ms total)
T5184 000:802 JLINK_WriteReg(XPSR, 0x01000000)  returns 0x00 (0000ms, 0675ms total)
T5184 000:802 JLINK_WriteReg(MSP, 0x20001000)  returns 0x00 (0000ms, 0675ms total)
T5184 000:802 JLINK_WriteReg(PSP, 0x20001000)  returns 0x00 (0000ms, 0675ms total)
T5184 000:802 JLINK_WriteReg(CFBP, 0x00000000)  returns 0x00 (0000ms, 0675ms total)
T5184 000:802 JLINK_SetBPEx(Addr = 0x20000000, Type = 0xFFFFFFF2) -- CPU_ReadMem(2 bytes @ 0x20000000)  returns 0x00000001 (0000ms, 0675ms total)
T5184 000:802 JLINK_Go() -- CPU_WriteMem(2 bytes @ 0x20000000) -- CPU_ReadMem(4 bytes @ 0xE0001000) -- CPU_WriteMem(4 bytes @ 0xE0002008) -- CPU_WriteMem(4 bytes @ 0xE000200C) -- CPU_WriteMem(4 bytes @ 0xE0002010) -- CPU_WriteMem(4 bytes @ 0xE0002014) -- CPU_WriteMem(4 bytes @ 0xE0002018) -- CPU_WriteMem(4 bytes @ 0xE000201C) -- CPU_WriteMem(4 bytes @ 0xE0001004) (0008ms, 0683ms total)
T5184 000:810 JLINK_IsHalted() -- CPU_ReadMem(2 bytes @ 0x20000000)  returns TRUE (0005ms, 0688ms total)
T5184 000:815 JLINK_ReadReg(R15 (PC))  returns 0x20000000 (0000ms, 0683ms total)
T5184 000:815 JLINK_ClrBPEx(BPHandle = 0x00000001)  returns 0x00 (0000ms, 0683ms total)
T5184 000:815 JLINK_ReadReg(R0)  returns 0x00000000 (0000ms, 0683ms total)
T5184 000:816 JLINK_WriteReg(R0, 0x08000000)  returns 0x00 (0000ms, 0683ms total)
T5184 000:816 JLINK_WriteReg(R1, 0x007A1200)  returns 0x00 (0000ms, 0683ms total)
T5184 000:816 JLINK_WriteReg(R2, 0x00000001)  returns 0x00 (0000ms, 0683ms total)
T5184 000:816 JLINK_WriteReg(R3, 0x00000000)  returns 0x00 (0000ms, 0683ms total)
T5184 000:816 JLINK_WriteReg(R4, 0x00000000)  returns 0x00 (0000ms, 0683ms total)
T5184 000:816 JLINK_WriteReg(R5, 0x00000000)  returns 0x00 (0000ms, 0683ms total)
T5184 000:816 JLINK_WriteReg(R6, 0x00000000)  returns 0x00 (0000ms, 0683ms total)
T5184 000:816 JLINK_WriteReg(R7, 0x00000000)  returns 0x00 (0000ms, 0683ms total)
T5184 000:816 JLINK_WriteReg(R8, 0x00000000)  returns 0x00 (0000ms, 0683ms total)
T5184 000:816 JLINK_WriteReg(R9, 0x20000160)  returns 0x00 (0000ms, 0683ms total)
T5184 000:816 JLINK_WriteReg(R10, 0x00000000)  returns 0x00 (0000ms, 0683ms total)
T5184 000:816 JLINK_WriteReg(R11, 0x00000000)  returns 0x00 (0000ms, 0683ms total)
T5184 000:816 JLINK_WriteReg(R12, 0x00000000)  returns 0x00 (0000ms, 0683ms total)
T5184 000:816 JLINK_WriteReg(R13 (SP), 0x20001000)  returns 0x00 (0000ms, 0683ms total)
T5184 000:816 JLINK_WriteReg(R14, 0x20000001)  returns 0x00 (0000ms, 0683ms total)
T5184 000:816 JLINK_WriteReg(R15 (PC), 0x2000007C)  returns 0x00 (0000ms, 0683ms total)
T5184 000:816 JLINK_WriteReg(XPSR, 0x01000000)  returns 0x00 (0000ms, 0683ms total)
T5184 000:816 JLINK_WriteReg(MSP, 0x20001000)  returns 0x00 (0000ms, 0683ms total)
T5184 000:816 JLINK_WriteReg(PSP, 0x20001000)  returns 0x00 (0000ms, 0683ms total)
T5184 000:816 JLINK_WriteReg(CFBP, 0x00000000)  returns 0x00 (0001ms, 0684ms total)
T5184 000:817 JLINK_SetBPEx(Addr = 0x20000000, Type = 0xFFFFFFF2)  returns 0x00000002 (0000ms, 0684ms total)
T5184 000:817 JLINK_Go() -- CPU_ReadMem(4 bytes @ 0xE0001000) (0002ms, 0686ms total)
T5184 000:819 JLINK_IsHalted()  returns FALSE (0000ms, 0686ms total)
T5184 000:891 JLINK_IsHalted() -- CPU_ReadMem(2 bytes @ 0x20000000)  returns TRUE (0005ms, 0691ms total)
T5184 000:896 JLINK_ReadReg(R15 (PC))  returns 0x20000000 (0000ms, 0686ms total)
T5184 000:896 JLINK_ClrBPEx(BPHandle = 0x00000002)  returns 0x00 (0000ms, 0686ms total)
T5184 000:896 JLINK_ReadReg(R0)  returns 0x00000000 (0000ms, 0686ms total)
T5184 000:948 JLINK_WriteReg(R0, 0x00000001)  returns 0x00 (0000ms, 0686ms total)
T5184 000:948 JLINK_WriteReg(R1, 0x007A1200)  returns 0x00 (0000ms, 0686ms total)
T5184 000:948 JLINK_WriteReg(R2, 0x00000001)  returns 0x00 (0000ms, 0686ms total)
T5184 000:948 JLINK_WriteReg(R3, 0x00000000)  returns 0x00 (0000ms, 0686ms total)
T5184 000:948 JLINK_WriteReg(R4, 0x00000000)  returns 0x00 (0000ms, 0686ms total)
T5184 000:948 JLINK_WriteReg(R5, 0x00000000)  returns 0x00 (0000ms, 0686ms total)
T5184 000:948 JLINK_WriteReg(R6, 0x00000000)  returns 0x00 (0000ms, 0686ms total)
T5184 000:948 JLINK_WriteReg(R7, 0x00000000)  returns 0x00 (0000ms, 0686ms total)
T5184 000:948 JLINK_WriteReg(R8, 0x00000000)  returns 0x00 (0000ms, 0686ms total)
T5184 000:948 JLINK_WriteReg(R9, 0x20000160)  returns 0x00 (0000ms, 0686ms total)
T5184 000:948 JLINK_WriteReg(R10, 0x00000000)  returns 0x00 (0000ms, 0686ms total)
T5184 000:948 JLINK_WriteReg(R11, 0x00000000)  returns 0x00 (0000ms, 0686ms total)
T5184 000:948 JLINK_WriteReg(R12, 0x00000000)  returns 0x00 (0000ms, 0686ms total)
T5184 000:948 JLINK_WriteReg(R13 (SP), 0x20001000)  returns 0x00 (0000ms, 0686ms total)
T5184 000:948 JLINK_WriteReg(R14, 0x20000001)  returns 0x00 (0000ms, 0686ms total)
T5184 000:948 JLINK_WriteReg(R15 (PC), 0x2000006A)  returns 0x00 (0000ms, 0686ms total)
T5184 000:948 JLINK_WriteReg(XPSR, 0x01000000)  returns 0x00 (0000ms, 0686ms total)
T5184 000:948 JLINK_WriteReg(MSP, 0x20001000)  returns 0x00 (0000ms, 0686ms total)
T5184 000:948 JLINK_WriteReg(PSP, 0x20001000)  returns 0x00 (0000ms, 0686ms total)
T5184 000:948 JLINK_WriteReg(CFBP, 0x00000000)  returns 0x00 (0000ms, 0686ms total)
T5184 000:948 JLINK_SetBPEx(Addr = 0x20000000, Type = 0xFFFFFFF2)  returns 0x00000003 (0000ms, 0686ms total)
T5184 000:948 JLINK_Go() -- CPU_ReadMem(4 bytes @ 0xE0001000) (0003ms, 0689ms total)
T5184 000:951 JLINK_IsHalted() -- CPU_ReadMem(2 bytes @ 0x20000000)  returns TRUE (0005ms, 0694ms total)
T5184 000:956 JLINK_ReadReg(R15 (PC))  returns 0x20000000 (0000ms, 0689ms total)
T5184 000:956 JLINK_ClrBPEx(BPHandle = 0x00000003)  returns 0x00 (0000ms, 0689ms total)
T5184 000:956 JLINK_ReadReg(R0)  returns 0x00000000 (0000ms, 0689ms total)
T5184 000:962 JLINK_WriteMem(0x20000000, 0x0164 Bytes, ...) - Data: 00 BE 0A E0 0D 78 2D 06 68 40 08 24 40 00 00 D3 ... -- CPU_WriteMem(356 bytes @ 0x20000000)  returns 0x164 (0006ms, 0695ms total)
T5184 000:968 JLINK_WriteReg(R0, 0x08000000)  returns 0x00 (0000ms, 0695ms total)
T5184 000:968 JLINK_WriteReg(R1, 0x007A1200)  returns 0x00 (0000ms, 0695ms total)
T5184 000:968 JLINK_WriteReg(R2, 0x00000002)  returns 0x00 (0000ms, 0695ms total)
T5184 000:968 JLINK_WriteReg(R3, 0x00000000)  returns 0x00 (0000ms, 0695ms total)
T5184 000:968 JLINK_WriteReg(R4, 0x00000000)  returns 0x00 (0000ms, 0695ms total)
T5184 000:968 JLINK_WriteReg(R5, 0x00000000)  returns 0x00 (0000ms, 0695ms total)
T5184 000:968 JLINK_WriteReg(R6, 0x00000000)  returns 0x00 (0000ms, 0695ms total)
T5184 000:968 JLINK_WriteReg(R7, 0x00000000)  returns 0x00 (0000ms, 0695ms total)
T5184 000:968 JLINK_WriteReg(R8, 0x00000000)  returns 0x00 (0000ms, 0695ms total)
T5184 000:968 JLINK_WriteReg(R9, 0x20000160)  returns 0x00 (0001ms, 0696ms total)
T5184 000:969 JLINK_WriteReg(R10, 0x00000000)  returns 0x00 (0000ms, 0696ms total)
T5184 000:969 JLINK_WriteReg(R11, 0x00000000)  returns 0x00 (0000ms, 0696ms total)
T5184 000:969 JLINK_WriteReg(R12, 0x00000000)  returns 0x00 (0000ms, 0696ms total)
T5184 000:969 JLINK_WriteReg(R13 (SP), 0x20001000)  returns 0x00 (0000ms, 0696ms total)
T5184 000:969 JLINK_WriteReg(R14, 0x20000001)  returns 0x00 (0000ms, 0696ms total)
T5184 000:969 JLINK_WriteReg(R15 (PC), 0x20000038)  returns 0x00 (0000ms, 0696ms total)
T5184 000:969 JLINK_WriteReg(XPSR, 0x01000000)  returns 0x00 (0000ms, 0696ms total)
T5184 000:969 JLINK_WriteReg(MSP, 0x20001000)  returns 0x00 (0000ms, 0696ms total)
T5184 000:969 JLINK_WriteReg(PSP, 0x20001000)  returns 0x00 (0000ms, 0696ms total)
T5184 000:969 JLINK_WriteReg(CFBP, 0x00000000)  returns 0x00 (0000ms, 0696ms total)
T5184 000:969 JLINK_SetBPEx(Addr = 0x20000000, Type = 0xFFFFFFF2) -- CPU_ReadMem(2 bytes @ 0x20000000)  returns 0x00000004 (0000ms, 0696ms total)
T5184 000:969 JLINK_Go() -- CPU_WriteMem(2 bytes @ 0x20000000) -- CPU_ReadMem(4 bytes @ 0xE0001000) (0003ms, 0699ms total)
T5184 000:972 JLINK_IsHalted() -- CPU_ReadMem(2 bytes @ 0x20000000)  returns TRUE (0005ms, 0704ms total)
T5184 000:977 JLINK_ReadReg(R15 (PC))  returns 0x20000000 (0000ms, 0699ms total)
T5184 000:977 JLINK_ClrBPEx(BPHandle = 0x00000004)  returns 0x00 (0000ms, 0699ms total)
T5184 000:977 JLINK_ReadReg(R0)  returns 0x00000000 (0000ms, 0699ms total)
T5184 000:978 JLINK_WriteMem(0x20000164, 0x0400 Bytes, ...) - Data: F8 87 00 20 45 01 00 08 05 5A 00 08 15 4A 00 08 ... -- CPU_WriteMem(1024 bytes @ 0x20000164)  returns 0x400 (0016ms, 0715ms total)
T5184 000:994 JLINK_WriteReg(R0, 0x08000000)  returns 0x00 (0000ms, 0715ms total)
T5184 000:994 JLINK_WriteReg(R1, 0x00000400)  returns 0x00 (0000ms, 0715ms total)
T5184 000:994 JLINK_WriteReg(R2, 0x20000164)  returns 0x00 (0000ms, 0715ms total)
T5184 000:994 JLINK_WriteReg(R3, 0x00000000)  returns 0x00 (0000ms, 0715ms total)
T5184 000:994 JLINK_WriteReg(R4, 0x00000000)  returns 0x00 (0000ms, 0715ms total)
T5184 000:994 JLINK_WriteReg(R5, 0x00000000)  returns 0x00 (0000ms, 0715ms total)
T5184 000:994 JLINK_WriteReg(R6, 0x00000000)  returns 0x00 (0000ms, 0715ms total)
T5184 000:994 JLINK_WriteReg(R7, 0x00000000)  returns 0x00 (0000ms, 0715ms total)
T5184 000:994 JLINK_WriteReg(R8, 0x00000000)  returns 0x00 (0000ms, 0715ms total)
T5184 000:994 JLINK_WriteReg(R9, 0x20000160)  returns 0x00 (0000ms, 0715ms total)
T5184 000:994 JLINK_WriteReg(R10, 0x00000000)  returns 0x00 (0000ms, 0715ms total)
T5184 000:994 JLINK_WriteReg(R11, 0x00000000)  returns 0x00 (0000ms, 0715ms total)
T5184 000:994 JLINK_WriteReg(R12, 0x00000000)  returns 0x00 (0000ms, 0715ms total)
T5184 000:994 JLINK_WriteReg(R13 (SP), 0x20001000)  returns 0x00 (0000ms, 0715ms total)
T5184 000:994 JLINK_WriteReg(R14, 0x20000001)  returns 0x00 (0000ms, 0715ms total)
T5184 000:994 JLINK_WriteReg(R15 (PC), 0x200000F4)  returns 0x00 (0000ms, 0715ms total)
T5184 000:994 JLINK_WriteReg(XPSR, 0x01000000)  returns 0x00 (0000ms, 0715ms total)
T5184 000:994 JLINK_WriteReg(MSP, 0x20001000)  returns 0x00 (0001ms, 0716ms total)
T5184 000:995 JLINK_WriteReg(PSP, 0x20001000)  returns 0x00 (0000ms, 0716ms total)
T5184 000:995 JLINK_WriteReg(CFBP, 0x00000000)  returns 0x00 (0000ms, 0716ms total)
T5184 000:995 JLINK_SetBPEx(Addr = 0x20000000, Type = 0xFFFFFFF2)  returns 0x00000005 (0000ms, 0716ms total)
T5184 000:995 JLINK_Go() -- CPU_ReadMem(4 bytes @ 0xE0001000) (0002ms, 0718ms total)
T5184 000:997 JLINK_IsHalted()  returns FALSE (0001ms, 0719ms total)
T5184 001:062 JLINK_IsHalted() -- CPU_ReadMem(2 bytes @ 0x20000000)  returns TRUE (0005ms, 0723ms total)
T5184 001:067 JLINK_ReadReg(R15 (PC))  returns 0x20000000 (0000ms, 0718ms total)
T5184 001:067 JLINK_ClrBPEx(BPHandle = 0x00000005)  returns 0x00 (0000ms, 0718ms total)
T5184 001:067 JLINK_ReadReg(R0)  returns 0x00000000 (0000ms, 0718ms total)
T5184 001:067 JLINK_WriteMem(0x20000164, 0x0400 Bytes, ...) - Data: 00 41 50 EA 01 02 06 D0 0A 0D A2 F5 60 72 C1 F3 ... -- CPU_WriteMem(1024 bytes @ 0x20000164)  returns 0x400 (0015ms, 0733ms total)
T5184 001:083 JLINK_WriteReg(R0, 0x08000400)  returns 0x00 (0000ms, 0733ms total)
T5184 001:083 JLINK_WriteReg(R1, 0x00000400)  returns 0x00 (0000ms, 0733ms total)
T5184 001:083 JLINK_WriteReg(R2, 0x20000164)  returns 0x00 (0000ms, 0733ms total)
T5184 001:083 JLINK_WriteReg(R3, 0x00000000)  returns 0x00 (0000ms, 0733ms total)
T5184 001:083 JLINK_WriteReg(R4, 0x00000000)  returns 0x00 (0000ms, 0733ms total)
T5184 001:083 JLINK_WriteReg(R5, 0x00000000)  returns 0x00 (0000ms, 0733ms total)
T5184 001:083 JLINK_WriteReg(R6, 0x00000000)  returns 0x00 (0000ms, 0733ms total)
T5184 001:083 JLINK_WriteReg(R7, 0x00000000)  returns 0x00 (0000ms, 0733ms total)
T5184 001:083 JLINK_WriteReg(R8, 0x00000000)  returns 0x00 (0000ms, 0733ms total)
T5184 001:083 JLINK_WriteReg(R9, 0x20000160)  returns 0x00 (0000ms, 0733ms total)
T5184 001:083 JLINK_WriteReg(R10, 0x00000000)  returns 0x00 (0000ms, 0733ms total)
T5184 001:083 JLINK_WriteReg(R11, 0x00000000)  returns 0x00 (0000ms, 0733ms total)
T5184 001:083 JLINK_WriteReg(R12, 0x00000000)  returns 0x00 (0000ms, 0733ms total)
T5184 001:083 JLINK_WriteReg(R13 (SP), 0x20001000)  returns 0x00 (0000ms, 0733ms total)
T5184 001:083 JLINK_WriteReg(R14, 0x20000001)  returns 0x00 (0000ms, 0733ms total)
T5184 001:083 JLINK_WriteReg(R15 (PC), 0x200000F4)  returns 0x00 (0000ms, 0733ms total)
T5184 001:083 JLINK_WriteReg(XPSR, 0x01000000)  returns 0x00 (0000ms, 0733ms total)
T5184 001:083 JLINK_WriteReg(MSP, 0x20001000)  returns 0x00 (0000ms, 0733ms total)
T5184 001:083 JLINK_WriteReg(PSP, 0x20001000)  returns 0x00 (0000ms, 0733ms total)
T5184 001:083 JLINK_WriteReg(CFBP, 0x00000000)  returns 0x00 (0000ms, 0733ms total)
T5184 001:083 JLINK_SetBPEx(Addr = 0x20000000, Type = 0xFFFFFFF2)  returns 0x00000006 (0000ms, 0733ms total)
T5184 001:083 JLINK_Go() -- CPU_ReadMem(4 bytes @ 0xE0001000) (0003ms, 0736ms total)
T5184 001:086 JLINK_IsHalted()  returns FALSE (0000ms, 0736ms total)
T5184 001:088 JLINK_IsHalted()  returns FALSE (0000ms, 0736ms total)
T5184 001:090 JLINK_IsHalted()  returns FALSE (0000ms, 0736ms total)
T5184 001:092 JLINK_IsHalted()  returns FALSE (0000ms, 0736ms total)
T5184 001:094 JLINK_IsHalted()  returns FALSE (0000ms, 0736ms total)
T5184 001:096 JLINK_IsHalted()  returns FALSE (0000ms, 0736ms total)
T5184 001:098 JLINK_IsHalted()  returns FALSE (0000ms, 0736ms total)
T5184 001:100 JLINK_IsHalted()  returns FALSE (0000ms, 0736ms total)
T5184 001:102 JLINK_IsHalted()  returns FALSE (0000ms, 0736ms total)
T5184 001:104 JLINK_IsHalted()  returns FALSE (0000ms, 0736ms total)
T5184 001:106 JLINK_IsHalted()  returns FALSE (0000ms, 0736ms total)
T5184 001:108 JLINK_IsHalted()  returns FALSE (0000ms, 0736ms total)
T5184 001:110 JLINK_IsHalted()  returns FALSE (0000ms, 0736ms total)
T5184 001:112 JLINK_IsHalted()  returns FALSE (0000ms, 0736ms total)
T5184 001:114 JLINK_IsHalted()  returns FALSE (0000ms, 0736ms total)
T5184 001:116 JLINK_IsHalted()  returns FALSE (0000ms, 0736ms total)
T5184 001:118 JLINK_IsHalted() -- CPU_ReadMem(2 bytes @ 0x20000000)  returns TRUE (0005ms, 0741ms total)
T5184 001:123 JLINK_ReadReg(R15 (PC))  returns 0x20000000 (0000ms, 0736ms total)
T5184 001:123 JLINK_ClrBPEx(BPHandle = 0x00000006)  returns 0x00 (0000ms, 0736ms total)
T5184 001:123 JLINK_ReadReg(R0)  returns 0x00000000 (0000ms, 0736ms total)
T5184 001:123 JLINK_WriteMem(0x20000164, 0x0400 Bytes, ...) - Data: 80 72 82 60 03 E0 82 68 22 F4 80 72 82 60 70 47 ... -- CPU_WriteMem(1024 bytes @ 0x20000164)  returns 0x400 (0015ms, 0751ms total)
T5184 001:138 JLINK_WriteReg(R0, 0x08000800)  returns 0x00 (0000ms, 0751ms total)
T5184 001:138 JLINK_WriteReg(R1, 0x00000400)  returns 0x00 (0000ms, 0751ms total)
T5184 001:138 JLINK_WriteReg(R2, 0x20000164)  returns 0x00 (0000ms, 0751ms total)
T5184 001:138 JLINK_WriteReg(R3, 0x00000000)  returns 0x00 (0000ms, 0751ms total)
T5184 001:138 JLINK_WriteReg(R4, 0x00000000)  returns 0x00 (0000ms, 0751ms total)
T5184 001:138 JLINK_WriteReg(R5, 0x00000000)  returns 0x00 (0001ms, 0752ms total)
T5184 001:139 JLINK_WriteReg(R6, 0x00000000)  returns 0x00 (0000ms, 0752ms total)
T5184 001:139 JLINK_WriteReg(R7, 0x00000000)  returns 0x00 (0000ms, 0752ms total)
T5184 001:139 JLINK_WriteReg(R8, 0x00000000)  returns 0x00 (0000ms, 0752ms total)
T5184 001:139 JLINK_WriteReg(R9, 0x20000160)  returns 0x00 (0000ms, 0752ms total)
T5184 001:139 JLINK_WriteReg(R10, 0x00000000)  returns 0x00 (0000ms, 0752ms total)
T5184 001:139 JLINK_WriteReg(R11, 0x00000000)  returns 0x00 (0000ms, 0752ms total)
T5184 001:139 JLINK_WriteReg(R12, 0x00000000)  returns 0x00 (0000ms, 0752ms total)
T5184 001:139 JLINK_WriteReg(R13 (SP), 0x20001000)  returns 0x00 (0000ms, 0752ms total)
T5184 001:139 JLINK_WriteReg(R14, 0x20000001)  returns 0x00 (0000ms, 0752ms total)
T5184 001:139 JLINK_WriteReg(R15 (PC), 0x200000F4)  returns 0x00 (0000ms, 0752ms total)
T5184 001:139 JLINK_WriteReg(XPSR, 0x01000000)  returns 0x00 (0000ms, 0752ms total)
T5184 001:139 JLINK_WriteReg(MSP, 0x20001000)  returns 0x00 (0000ms, 0752ms total)
T5184 001:139 JLINK_WriteReg(PSP, 0x20001000)  returns 0x00 (0000ms, 0752ms total)
T5184 001:139 JLINK_WriteReg(CFBP, 0x00000000)  returns 0x00 (0000ms, 0752ms total)
T5184 001:139 JLINK_SetBPEx(Addr = 0x20000000, Type = 0xFFFFFFF2)  returns 0x00000007 (0000ms, 0752ms total)
T5184 001:139 JLINK_Go() -- CPU_ReadMem(4 bytes @ 0xE0001000) (0002ms, 0754ms total)
T5184 001:141 JLINK_IsHalted()  returns FALSE (0001ms, 0755ms total)
T5184 001:179 JLINK_IsHalted() -- CPU_ReadMem(2 bytes @ 0x20000000)  returns TRUE (0005ms, 0759ms total)
T5184 001:184 JLINK_ReadReg(R15 (PC))  returns 0x20000000 (0000ms, 0754ms total)
T5184 001:184 JLINK_ClrBPEx(BPHandle = 0x00000007)  returns 0x00 (0000ms, 0754ms total)
T5184 001:184 JLINK_ReadReg(R0)  returns 0x00000000 (0000ms, 0754ms total)
T5184 001:185 JLINK_WriteMem(0x20000164, 0x0400 Bytes, ...) - Data: 28 46 01 F0 69 F9 01 90 87 6E 01 A8 00 97 01 F0 ... -- CPU_WriteMem(1024 bytes @ 0x20000164)  returns 0x400 (0015ms, 0769ms total)
T5184 001:200 JLINK_WriteReg(R0, 0x08000C00)  returns 0x00 (0000ms, 0769ms total)
T5184 001:200 JLINK_WriteReg(R1, 0x00000400)  returns 0x00 (0000ms, 0769ms total)
T5184 001:200 JLINK_WriteReg(R2, 0x20000164)  returns 0x00 (0000ms, 0769ms total)
T5184 001:200 JLINK_WriteReg(R3, 0x00000000)  returns 0x00 (0000ms, 0769ms total)
T5184 001:200 JLINK_WriteReg(R4, 0x00000000)  returns 0x00 (0000ms, 0769ms total)
T5184 001:200 JLINK_WriteReg(R5, 0x00000000)  returns 0x00 (0000ms, 0769ms total)
T5184 001:200 JLINK_WriteReg(R6, 0x00000000)  returns 0x00 (0000ms, 0769ms total)
T5184 001:200 JLINK_WriteReg(R7, 0x00000000)  returns 0x00 (0000ms, 0769ms total)
T5184 001:200 JLINK_WriteReg(R8, 0x00000000)  returns 0x00 (0000ms, 0769ms total)
T5184 001:200 JLINK_WriteReg(R9, 0x20000160)  returns 0x00 (0000ms, 0769ms total)
T5184 001:200 JLINK_WriteReg(R10, 0x00000000)  returns 0x00 (0000ms, 0769ms total)
T5184 001:200 JLINK_WriteReg(R11, 0x00000000)  returns 0x00 (0000ms, 0769ms total)
T5184 001:200 JLINK_WriteReg(R12, 0x00000000)  returns 0x00 (0000ms, 0769ms total)
T5184 001:200 JLINK_WriteReg(R13 (SP), 0x20001000)  returns 0x00 (0000ms, 0769ms total)
T5184 001:200 JLINK_WriteReg(R14, 0x20000001)  returns 0x00 (0000ms, 0769ms total)
T5184 001:200 JLINK_WriteReg(R15 (PC), 0x200000F4)  returns 0x00 (0000ms, 0769ms total)
T5184 001:200 JLINK_WriteReg(XPSR, 0x01000000)  returns 0x00 (0000ms, 0769ms total)
T5184 001:200 JLINK_WriteReg(MSP, 0x20001000)  returns 0x00 (0000ms, 0769ms total)
T5184 001:200 JLINK_WriteReg(PSP, 0x20001000)  returns 0x00 (0000ms, 0769ms total)
T5184 001:200 JLINK_WriteReg(CFBP, 0x00000000)  returns 0x00 (0000ms, 0769ms total)
T5184 001:200 JLINK_SetBPEx(Addr = 0x20000000, Type = 0xFFFFFFF2)  returns 0x00000008 (0000ms, 0769ms total)
T5184 001:200 JLINK_Go() -- CPU_ReadMem(4 bytes @ 0xE0001000) (0003ms, 0772ms total)
T5184 001:203 JLINK_IsHalted()  returns FALSE (0001ms, 0773ms total)
T5184 001:206 JLINK_IsHalted()  returns FALSE (0000ms, 0772ms total)
T5184 001:208 JLINK_IsHalted()  returns FALSE (0000ms, 0772ms total)
T5184 001:210 JLINK_IsHalted()  returns FALSE (0000ms, 0772ms total)
T5184 001:212 JLINK_IsHalted()  returns FALSE (0000ms, 0772ms total)
T5184 001:214 JLINK_IsHalted()  returns FALSE (0000ms, 0772ms total)
T5184 001:216 JLINK_IsHalted()  returns FALSE (0000ms, 0772ms total)
T5184 001:218 JLINK_IsHalted()  returns FALSE (0000ms, 0772ms total)
T5184 001:220 JLINK_IsHalted()  returns FALSE (0000ms, 0772ms total)
T5184 001:222 JLINK_IsHalted()  returns FALSE (0000ms, 0772ms total)
T5184 001:224 JLINK_IsHalted()  returns FALSE (0000ms, 0772ms total)
T5184 001:226 JLINK_IsHalted()  returns FALSE (0000ms, 0772ms total)
T5184 001:228 JLINK_IsHalted()  returns FALSE (0000ms, 0772ms total)
T5184 001:230 JLINK_IsHalted()  returns FALSE (0000ms, 0772ms total)
T5184 001:232 JLINK_IsHalted()  returns FALSE (0000ms, 0772ms total)
T5184 001:234 JLINK_IsHalted() -- CPU_ReadMem(2 bytes @ 0x20000000)  returns TRUE (0004ms, 0776ms total)
T5184 001:238 JLINK_ReadReg(R15 (PC))  returns 0x20000000 (0001ms, 0773ms total)
T5184 001:239 JLINK_ClrBPEx(BPHandle = 0x00000008)  returns 0x00 (0000ms, 0773ms total)
T5184 001:239 JLINK_ReadReg(R0)  returns 0x00000000 (0000ms, 0773ms total)
T5184 001:239 JLINK_WriteMem(0x20000164, 0x0400 Bytes, ...) - Data: 00 15 02 94 B0 F9 0C 10 B0 F9 10 50 B0 F9 0E 40 ... -- CPU_WriteMem(1024 bytes @ 0x20000164)  returns 0x400 (0015ms, 0788ms total)
T5184 001:255 JLINK_WriteReg(R0, 0x08001000)  returns 0x00 (0000ms, 0789ms total)
T5184 001:255 JLINK_WriteReg(R1, 0x00000400)  returns 0x00 (0000ms, 0789ms total)
T5184 001:255 JLINK_WriteReg(R2, 0x20000164)  returns 0x00 (0000ms, 0789ms total)
T5184 001:255 JLINK_WriteReg(R3, 0x00000000)  returns 0x00 (0000ms, 0789ms total)
T5184 001:255 JLINK_WriteReg(R4, 0x00000000)  returns 0x00 (0000ms, 0789ms total)
T5184 001:255 JLINK_WriteReg(R5, 0x00000000)  returns 0x00 (0000ms, 0789ms total)
T5184 001:255 JLINK_WriteReg(R6, 0x00000000)  returns 0x00 (0000ms, 0789ms total)
T5184 001:255 JLINK_WriteReg(R7, 0x00000000)  returns 0x00 (0000ms, 0789ms total)
T5184 001:255 JLINK_WriteReg(R8, 0x00000000)  returns 0x00 (0000ms, 0789ms total)
T5184 001:255 JLINK_WriteReg(R9, 0x20000160)  returns 0x00 (0000ms, 0789ms total)
T5184 001:255 JLINK_WriteReg(R10, 0x00000000)  returns 0x00 (0000ms, 0789ms total)
T5184 001:255 JLINK_WriteReg(R11, 0x00000000)  returns 0x00 (0000ms, 0789ms total)
T5184 001:255 JLINK_WriteReg(R12, 0x00000000)  returns 0x00 (0000ms, 0789ms total)
T5184 001:255 JLINK_WriteReg(R13 (SP), 0x20001000)  returns 0x00 (0000ms, 0789ms total)
T5184 001:255 JLINK_WriteReg(R14, 0x20000001)  returns 0x00 (0000ms, 0789ms total)
T5184 001:255 JLINK_WriteReg(R15 (PC), 0x200000F4)  returns 0x00 (0000ms, 0789ms total)
T5184 001:255 JLINK_WriteReg(XPSR, 0x01000000)  returns 0x00 (0000ms, 0789ms total)
T5184 001:255 JLINK_WriteReg(MSP, 0x20001000)  returns 0x00 (0000ms, 0789ms total)
T5184 001:255 JLINK_WriteReg(PSP, 0x20001000)  returns 0x00 (0000ms, 0789ms total)
T5184 001:255 JLINK_WriteReg(CFBP, 0x00000000)  returns 0x00 (0000ms, 0789ms total)
T5184 001:255 JLINK_SetBPEx(Addr = 0x20000000, Type = 0xFFFFFFF2)  returns 0x00000009 (0000ms, 0789ms total)
T5184 001:255 JLINK_Go() -- CPU_ReadMem(4 bytes @ 0xE0001000) (0003ms, 0792ms total)
T5184 001:258 JLINK_IsHalted()  returns FALSE (0000ms, 0792ms total)
T5184 001:293 JLINK_IsHalted() -- CPU_ReadMem(2 bytes @ 0x20000000)  returns TRUE (0005ms, 0797ms total)
T5184 001:298 JLINK_ReadReg(R15 (PC))  returns 0x20000000 (0000ms, 0792ms total)
T5184 001:298 JLINK_ClrBPEx(BPHandle = 0x00000009)  returns 0x00 (0000ms, 0792ms total)
T5184 001:298 JLINK_ReadReg(R0)  returns 0x00000000 (0000ms, 0792ms total)
T5184 001:298 JLINK_WriteMem(0x20000164, 0x0400 Bytes, ...) - Data: 01 A8 00 F0 A7 FD 20 46 05 F0 8E FA 04 46 00 2C ... -- CPU_WriteMem(1024 bytes @ 0x20000164)  returns 0x400 (0015ms, 0807ms total)
T5184 001:314 JLINK_WriteReg(R0, 0x08001400)  returns 0x00 (0000ms, 0807ms total)
T5184 001:314 JLINK_WriteReg(R1, 0x00000400)  returns 0x00 (0000ms, 0807ms total)
T5184 001:314 JLINK_WriteReg(R2, 0x20000164)  returns 0x00 (0000ms, 0807ms total)
T5184 001:314 JLINK_WriteReg(R3, 0x00000000)  returns 0x00 (0000ms, 0807ms total)
T5184 001:314 JLINK_WriteReg(R4, 0x00000000)  returns 0x00 (0000ms, 0807ms total)
T5184 001:314 JLINK_WriteReg(R5, 0x00000000)  returns 0x00 (0000ms, 0807ms total)
T5184 001:314 JLINK_WriteReg(R6, 0x00000000)  returns 0x00 (0000ms, 0807ms total)
T5184 001:314 JLINK_WriteReg(R7, 0x00000000)  returns 0x00 (0000ms, 0807ms total)
T5184 001:314 JLINK_WriteReg(R8, 0x00000000)  returns 0x00 (0000ms, 0807ms total)
T5184 001:314 JLINK_WriteReg(R9, 0x20000160)  returns 0x00 (0000ms, 0807ms total)
T5184 001:314 JLINK_WriteReg(R10, 0x00000000)  returns 0x00 (0000ms, 0807ms total)
T5184 001:314 JLINK_WriteReg(R11, 0x00000000)  returns 0x00 (0000ms, 0807ms total)
T5184 001:314 JLINK_WriteReg(R12, 0x00000000)  returns 0x00 (0000ms, 0807ms total)
T5184 001:314 JLINK_WriteReg(R13 (SP), 0x20001000)  returns 0x00 (0000ms, 0807ms total)
T5184 001:314 JLINK_WriteReg(R14, 0x20000001)  returns 0x00 (0000ms, 0807ms total)
T5184 001:314 JLINK_WriteReg(R15 (PC), 0x200000F4)  returns 0x00 (0000ms, 0807ms total)
T5184 001:314 JLINK_WriteReg(XPSR, 0x01000000)  returns 0x00 (0000ms, 0807ms total)
T5184 001:314 JLINK_WriteReg(MSP, 0x20001000)  returns 0x00 (0000ms, 0807ms total)
T5184 001:314 JLINK_WriteReg(PSP, 0x20001000)  returns 0x00 (0000ms, 0807ms total)
T5184 001:314 JLINK_WriteReg(CFBP, 0x00000000)  returns 0x00 (0000ms, 0807ms total)
T5184 001:314 JLINK_SetBPEx(Addr = 0x20000000, Type = 0xFFFFFFF2)  returns 0x0000000A (0000ms, 0807ms total)
T5184 001:314 JLINK_Go() -- CPU_ReadMem(4 bytes @ 0xE0001000) (0003ms, 0810ms total)
T5184 001:317 JLINK_IsHalted()  returns FALSE (0000ms, 0810ms total)
T5184 001:321 JLINK_IsHalted()  returns FALSE (0000ms, 0810ms total)
T5184 001:323 JLINK_IsHalted()  returns FALSE (0000ms, 0810ms total)
T5184 001:325 JLINK_IsHalted()  returns FALSE (0000ms, 0810ms total)
T5184 001:327 JLINK_IsHalted()  returns FALSE (0000ms, 0810ms total)
T5184 001:329 JLINK_IsHalted()  returns FALSE (0000ms, 0810ms total)
T5184 001:331 JLINK_IsHalted()  returns FALSE (0000ms, 0810ms total)
T5184 001:333 JLINK_IsHalted()  returns FALSE (0001ms, 0811ms total)
T5184 001:337 JLINK_IsHalted()  returns FALSE (0000ms, 0810ms total)
T5184 001:339 JLINK_IsHalted()  returns FALSE (0000ms, 0810ms total)
T5184 001:341 JLINK_IsHalted()  returns FALSE (0000ms, 0810ms total)
T5184 001:343 JLINK_IsHalted()  returns FALSE (0000ms, 0810ms total)
T5184 001:345 JLINK_IsHalted()  returns FALSE (0000ms, 0810ms total)
T5184 001:347 JLINK_IsHalted()  returns FALSE (0000ms, 0810ms total)
T5184 001:349 JLINK_IsHalted() -- CPU_ReadMem(2 bytes @ 0x20000000)  returns TRUE (0005ms, 0815ms total)
T5184 001:354 JLINK_ReadReg(R15 (PC))  returns 0x20000000 (0000ms, 0810ms total)
T5184 001:354 JLINK_ClrBPEx(BPHandle = 0x0000000A)  returns 0x00 (0000ms, 0810ms total)
T5184 001:354 JLINK_ReadReg(R0)  returns 0x00000000 (0000ms, 0810ms total)
T5184 001:354 JLINK_WriteMem(0x20000164, 0x0400 Bytes, ...) - Data: D4 F8 E8 30 20 46 98 47 06 46 D4 F8 EC 30 2A 46 ... -- CPU_WriteMem(1024 bytes @ 0x20000164)  returns 0x400 (0016ms, 0826ms total)
T5184 001:371 JLINK_WriteReg(R0, 0x08001800)  returns 0x00 (0000ms, 0826ms total)
T5184 001:371 JLINK_WriteReg(R1, 0x00000400)  returns 0x00 (0000ms, 0826ms total)
T5184 001:371 JLINK_WriteReg(R2, 0x20000164)  returns 0x00 (0000ms, 0826ms total)
T5184 001:371 JLINK_WriteReg(R3, 0x00000000)  returns 0x00 (0000ms, 0826ms total)
T5184 001:371 JLINK_WriteReg(R4, 0x00000000)  returns 0x00 (0000ms, 0826ms total)
T5184 001:371 JLINK_WriteReg(R5, 0x00000000)  returns 0x00 (0000ms, 0826ms total)
T5184 001:371 JLINK_WriteReg(R6, 0x00000000)  returns 0x00 (0000ms, 0826ms total)
T5184 001:371 JLINK_WriteReg(R7, 0x00000000)  returns 0x00 (0000ms, 0826ms total)
T5184 001:371 JLINK_WriteReg(R8, 0x00000000)  returns 0x00 (0000ms, 0826ms total)
T5184 001:371 JLINK_WriteReg(R9, 0x20000160)  returns 0x00 (0000ms, 0826ms total)
T5184 001:371 JLINK_WriteReg(R10, 0x00000000)  returns 0x00 (0000ms, 0826ms total)
T5184 001:371 JLINK_WriteReg(R11, 0x00000000)  returns 0x00 (0000ms, 0826ms total)
T5184 001:371 JLINK_WriteReg(R12, 0x00000000)  returns 0x00 (0000ms, 0826ms total)
T5184 001:371 JLINK_WriteReg(R13 (SP), 0x20001000)  returns 0x00 (0000ms, 0826ms total)
T5184 001:371 JLINK_WriteReg(R14, 0x20000001)  returns 0x00 (0000ms, 0826ms total)
T5184 001:371 JLINK_WriteReg(R15 (PC), 0x200000F4)  returns 0x00 (0000ms, 0826ms total)
T5184 001:371 JLINK_WriteReg(XPSR, 0x01000000)  returns 0x00 (0000ms, 0826ms total)
T5184 001:371 JLINK_WriteReg(MSP, 0x20001000)  returns 0x00 (0000ms, 0826ms total)
T5184 001:371 JLINK_WriteReg(PSP, 0x20001000)  returns 0x00 (0000ms, 0826ms total)
T5184 001:371 JLINK_WriteReg(CFBP, 0x00000000)  returns 0x00 (0000ms, 0826ms total)
T5184 001:371 JLINK_SetBPEx(Addr = 0x20000000, Type = 0xFFFFFFF2)  returns 0x0000000B (0000ms, 0826ms total)
T5184 001:371 JLINK_Go() -- CPU_ReadMem(4 bytes @ 0xE0001000) (0003ms, 0829ms total)
T5184 001:374 JLINK_IsHalted()  returns FALSE (0000ms, 0829ms total)
T5184 001:404 JLINK_IsHalted()  returns FALSE (0000ms, 0829ms total)
T5184 001:406 JLINK_IsHalted() -- CPU_ReadMem(2 bytes @ 0x20000000)  returns TRUE (0005ms, 0834ms total)
T5184 001:411 JLINK_ReadReg(R15 (PC))  returns 0x20000000 (0000ms, 0829ms total)
T5184 001:411 JLINK_ClrBPEx(BPHandle = 0x0000000B)  returns 0x00 (0000ms, 0829ms total)
T5184 001:411 JLINK_ReadReg(R0)  returns 0x00000000 (0000ms, 0829ms total)
T5184 001:411 JLINK_WriteMem(0x20000164, 0x0400 Bytes, ...) - Data: 00 EB C2 00 A4 7E 08 5C 60 43 00 2B 03 D0 11 F8 ... -- CPU_WriteMem(1024 bytes @ 0x20000164)  returns 0x400 (0015ms, 0844ms total)
T5184 001:426 JLINK_WriteReg(R0, 0x08001C00)  returns 0x00 (0000ms, 0844ms total)
T5184 001:426 JLINK_WriteReg(R1, 0x00000400)  returns 0x00 (0000ms, 0844ms total)
T5184 001:426 JLINK_WriteReg(R2, 0x20000164)  returns 0x00 (0000ms, 0844ms total)
T5184 001:426 JLINK_WriteReg(R3, 0x00000000)  returns 0x00 (0000ms, 0844ms total)
T5184 001:426 JLINK_WriteReg(R4, 0x00000000)  returns 0x00 (0001ms, 0845ms total)
T5184 001:427 JLINK_WriteReg(R5, 0x00000000)  returns 0x00 (0000ms, 0845ms total)
T5184 001:427 JLINK_WriteReg(R6, 0x00000000)  returns 0x00 (0000ms, 0845ms total)
T5184 001:427 JLINK_WriteReg(R7, 0x00000000)  returns 0x00 (0000ms, 0845ms total)
T5184 001:427 JLINK_WriteReg(R8, 0x00000000)  returns 0x00 (0000ms, 0845ms total)
T5184 001:427 JLINK_WriteReg(R9, 0x20000160)  returns 0x00 (0000ms, 0845ms total)
T5184 001:427 JLINK_WriteReg(R10, 0x00000000)  returns 0x00 (0000ms, 0845ms total)
T5184 001:427 JLINK_WriteReg(R11, 0x00000000)  returns 0x00 (0000ms, 0845ms total)
T5184 001:427 JLINK_WriteReg(R12, 0x00000000)  returns 0x00 (0000ms, 0845ms total)
T5184 001:427 JLINK_WriteReg(R13 (SP), 0x20001000)  returns 0x00 (0000ms, 0845ms total)
T5184 001:427 JLINK_WriteReg(R14, 0x20000001)  returns 0x00 (0000ms, 0845ms total)
T5184 001:427 JLINK_WriteReg(R15 (PC), 0x200000F4)  returns 0x00 (0000ms, 0845ms total)
T5184 001:427 JLINK_WriteReg(XPSR, 0x01000000)  returns 0x00 (0000ms, 0845ms total)
T5184 001:427 JLINK_WriteReg(MSP, 0x20001000)  returns 0x00 (0000ms, 0845ms total)
T5184 001:427 JLINK_WriteReg(PSP, 0x20001000)  returns 0x00 (0000ms, 0845ms total)
T5184 001:427 JLINK_WriteReg(CFBP, 0x00000000)  returns 0x00 (0000ms, 0845ms total)
T5184 001:427 JLINK_SetBPEx(Addr = 0x20000000, Type = 0xFFFFFFF2)  returns 0x0000000C (0000ms, 0845ms total)
T5184 001:427 JLINK_Go() -- CPU_ReadMem(4 bytes @ 0xE0001000) (0003ms, 0848ms total)
T5184 001:430 JLINK_IsHalted()  returns FALSE (0000ms, 0848ms total)
T5184 001:432 JLINK_IsHalted()  returns FALSE (0000ms, 0848ms total)
T5184 001:434 JLINK_IsHalted()  returns FALSE (0000ms, 0848ms total)
T5184 001:436 JLINK_IsHalted()  returns FALSE (0000ms, 0848ms total)
T5184 001:438 JLINK_IsHalted()  returns FALSE (0000ms, 0848ms total)
T5184 001:440 JLINK_IsHalted()  returns FALSE (0000ms, 0848ms total)
T5184 001:442 JLINK_IsHalted()  returns FALSE (0000ms, 0848ms total)
T5184 001:444 JLINK_IsHalted()  returns FALSE (0000ms, 0848ms total)
T5184 001:446 JLINK_IsHalted()  returns FALSE (0000ms, 0848ms total)
T5184 001:448 JLINK_IsHalted()  returns FALSE (0000ms, 0848ms total)
T5184 001:450 JLINK_IsHalted()  returns FALSE (0000ms, 0848ms total)
T5184 001:452 JLINK_IsHalted()  returns FALSE (0000ms, 0848ms total)
T5184 001:454 JLINK_IsHalted()  returns FALSE (0000ms, 0848ms total)
T5184 001:456 JLINK_IsHalted()  returns FALSE (0000ms, 0848ms total)
T5184 001:458 JLINK_IsHalted()  returns FALSE (0000ms, 0848ms total)
T5184 001:460 JLINK_IsHalted()  returns FALSE (0000ms, 0848ms total)
T5184 001:646 JLINK_IsHalted() -- CPU_ReadMem(2 bytes @ 0x20000000)  returns TRUE (0005ms, 0853ms total)
T5184 001:651 JLINK_ReadReg(R15 (PC))  returns 0x20000000 (0000ms, 0848ms total)
T5184 001:651 JLINK_ClrBPEx(BPHandle = 0x0000000C)  returns 0x00 (0000ms, 0848ms total)
T5184 001:651 JLINK_ReadReg(R0)  returns 0x00000000 (0000ms, 0848ms total)
T5184 001:651 JLINK_WriteMem(0x20000164, 0x0400 Bytes, ...) - Data: 16 00 11 B9 0D B1 64 1C E4 B2 1E 68 30 34 77 1C ... -- CPU_WriteMem(1024 bytes @ 0x20000164)  returns 0x400 (0015ms, 0863ms total)
T5184 001:666 JLINK_WriteReg(R0, 0x08002000)  returns 0x00 (0001ms, 0864ms total)
T5184 001:667 JLINK_WriteReg(R1, 0x00000400)  returns 0x00 (0000ms, 0864ms total)
T5184 001:667 JLINK_WriteReg(R2, 0x20000164)  returns 0x00 (0000ms, 0864ms total)
T5184 001:667 JLINK_WriteReg(R3, 0x00000000)  returns 0x00 (0000ms, 0864ms total)
T5184 001:667 JLINK_WriteReg(R4, 0x00000000)  returns 0x00 (0000ms, 0864ms total)
T5184 001:667 JLINK_WriteReg(R5, 0x00000000)  returns 0x00 (0000ms, 0864ms total)
T5184 001:667 JLINK_WriteReg(R6, 0x00000000)  returns 0x00 (0000ms, 0864ms total)
T5184 001:667 JLINK_WriteReg(R7, 0x00000000)  returns 0x00 (0000ms, 0864ms total)
T5184 001:667 JLINK_WriteReg(R8, 0x00000000)  returns 0x00 (0000ms, 0864ms total)
T5184 001:667 JLINK_WriteReg(R9, 0x20000160)  returns 0x00 (0000ms, 0864ms total)
T5184 001:667 JLINK_WriteReg(R10, 0x00000000)  returns 0x00 (0000ms, 0864ms total)
T5184 001:667 JLINK_WriteReg(R11, 0x00000000)  returns 0x00 (0000ms, 0864ms total)
T5184 001:667 JLINK_WriteReg(R12, 0x00000000)  returns 0x00 (0000ms, 0864ms total)
T5184 001:667 JLINK_WriteReg(R13 (SP), 0x20001000)  returns 0x00 (0000ms, 0864ms total)
T5184 001:667 JLINK_WriteReg(R14, 0x20000001)  returns 0x00 (0000ms, 0864ms total)
T5184 001:667 JLINK_WriteReg(R15 (PC), 0x200000F4)  returns 0x00 (0000ms, 0864ms total)
T5184 001:667 JLINK_WriteReg(XPSR, 0x01000000)  returns 0x00 (0000ms, 0864ms total)
T5184 001:667 JLINK_WriteReg(MSP, 0x20001000)  returns 0x00 (0000ms, 0864ms total)
T5184 001:667 JLINK_WriteReg(PSP, 0x20001000)  returns 0x00 (0000ms, 0864ms total)
T5184 001:667 JLINK_WriteReg(CFBP, 0x00000000)  returns 0x00 (0000ms, 0864ms total)
T5184 001:667 JLINK_SetBPEx(Addr = 0x20000000, Type = 0xFFFFFFF2)  returns 0x0000000D (0000ms, 0864ms total)
T5184 001:667 JLINK_Go() -- CPU_ReadMem(4 bytes @ 0xE0001000) (0003ms, 0867ms total)
T5184 001:670 JLINK_IsHalted()  returns FALSE (0000ms, 0867ms total)
T5184 001:675 JLINK_IsHalted()  returns FALSE (0000ms, 0867ms total)
T5184 001:712 JLINK_IsHalted() -- CPU_ReadMem(2 bytes @ 0x20000000)  returns TRUE (0005ms, 0872ms total)
T5184 001:717 JLINK_ReadReg(R15 (PC))  returns 0x20000000 (0000ms, 0867ms total)
T5184 001:717 JLINK_ClrBPEx(BPHandle = 0x0000000D)  returns 0x00 (0000ms, 0867ms total)
T5184 001:717 JLINK_ReadReg(R0)  returns 0x00000000 (0000ms, 0867ms total)
T5184 001:717 JLINK_WriteMem(0x20000164, 0x0400 Bytes, ...) - Data: 0F FB 06 44 30 78 0A 28 1C D0 0D 28 1A D0 BD F8 ... -- CPU_WriteMem(1024 bytes @ 0x20000164)  returns 0x400 (0016ms, 0883ms total)
T5184 001:733 JLINK_WriteReg(R0, 0x08002400)  returns 0x00 (0000ms, 0883ms total)
T5184 001:733 JLINK_WriteReg(R1, 0x00000400)  returns 0x00 (0000ms, 0883ms total)
T5184 001:733 JLINK_WriteReg(R2, 0x20000164)  returns 0x00 (0000ms, 0883ms total)
T5184 001:733 JLINK_WriteReg(R3, 0x00000000)  returns 0x00 (0000ms, 0883ms total)
T5184 001:733 JLINK_WriteReg(R4, 0x00000000)  returns 0x00 (0000ms, 0883ms total)
T5184 001:733 JLINK_WriteReg(R5, 0x00000000)  returns 0x00 (0000ms, 0883ms total)
T5184 001:733 JLINK_WriteReg(R6, 0x00000000)  returns 0x00 (0000ms, 0883ms total)
T5184 001:733 JLINK_WriteReg(R7, 0x00000000)  returns 0x00 (0000ms, 0883ms total)
T5184 001:733 JLINK_WriteReg(R8, 0x00000000)  returns 0x00 (0000ms, 0883ms total)
T5184 001:733 JLINK_WriteReg(R9, 0x20000160)  returns 0x00 (0000ms, 0883ms total)
T5184 001:733 JLINK_WriteReg(R10, 0x00000000)  returns 0x00 (0000ms, 0883ms total)
T5184 001:733 JLINK_WriteReg(R11, 0x00000000)  returns 0x00 (0000ms, 0883ms total)
T5184 001:733 JLINK_WriteReg(R12, 0x00000000)  returns 0x00 (0000ms, 0883ms total)
T5184 001:733 JLINK_WriteReg(R13 (SP), 0x20001000)  returns 0x00 (0000ms, 0883ms total)
T5184 001:733 JLINK_WriteReg(R14, 0x20000001)  returns 0x00 (0000ms, 0883ms total)
T5184 001:733 JLINK_WriteReg(R15 (PC), 0x200000F4)  returns 0x00 (0000ms, 0883ms total)
T5184 001:733 JLINK_WriteReg(XPSR, 0x01000000)  returns 0x00 (0000ms, 0883ms total)
T5184 001:733 JLINK_WriteReg(MSP, 0x20001000)  returns 0x00 (0000ms, 0883ms total)
T5184 001:733 JLINK_WriteReg(PSP, 0x20001000)  returns 0x00 (0000ms, 0883ms total)
T5184 001:733 JLINK_WriteReg(CFBP, 0x00000000)  returns 0x00 (0000ms, 0883ms total)
T5184 001:733 JLINK_SetBPEx(Addr = 0x20000000, Type = 0xFFFFFFF2)  returns 0x0000000E (0000ms, 0883ms total)
T5184 001:733 JLINK_Go() -- CPU_ReadMem(4 bytes @ 0xE0001000) (0003ms, 0886ms total)
T5184 001:736 JLINK_IsHalted()  returns FALSE (0000ms, 0886ms total)
T5184 001:740 JLINK_IsHalted()  returns FALSE (0000ms, 0886ms total)
T5184 001:743 JLINK_IsHalted()  returns FALSE (0000ms, 0886ms total)
T5184 001:745 JLINK_IsHalted()  returns FALSE (0000ms, 0886ms total)
T5184 001:747 JLINK_IsHalted()  returns FALSE (0000ms, 0886ms total)
T5184 001:749 JLINK_IsHalted()  returns FALSE (0000ms, 0886ms total)
T5184 001:751 JLINK_IsHalted()  returns FALSE (0000ms, 0886ms total)
T5184 001:753 JLINK_IsHalted()  returns FALSE (0000ms, 0886ms total)
T5184 001:755 JLINK_IsHalted()  returns FALSE (0000ms, 0886ms total)
T5184 001:759 JLINK_IsHalted()  returns FALSE (0000ms, 0886ms total)
T5184 001:761 JLINK_IsHalted()  returns FALSE (0000ms, 0886ms total)
T5184 001:763 JLINK_IsHalted()  returns FALSE (0000ms, 0886ms total)
T5184 001:765 JLINK_IsHalted()  returns FALSE (0000ms, 0886ms total)
T5184 001:767 JLINK_IsHalted()  returns FALSE (0000ms, 0886ms total)
T5184 001:769 JLINK_IsHalted() -- CPU_ReadMem(2 bytes @ 0x20000000)  returns TRUE (0005ms, 0891ms total)
T5184 001:774 JLINK_ReadReg(R15 (PC))  returns 0x20000000 (0000ms, 0886ms total)
T5184 001:774 JLINK_ClrBPEx(BPHandle = 0x0000000E)  returns 0x00 (0000ms, 0886ms total)
T5184 001:774 JLINK_ReadReg(R0)  returns 0x00000000 (0000ms, 0886ms total)
T5184 001:775 JLINK_WriteMem(0x20000164, 0x0400 Bytes, ...) - Data: 20 46 70 BD 1C 83 00 20 00 28 01 D0 04 F0 46 B8 ... -- CPU_WriteMem(1024 bytes @ 0x20000164)  returns 0x400 (0015ms, 0901ms total)
T5184 001:790 JLINK_WriteReg(R0, 0x08002800)  returns 0x00 (0000ms, 0901ms total)
T5184 001:790 JLINK_WriteReg(R1, 0x00000400)  returns 0x00 (0000ms, 0901ms total)
T5184 001:790 JLINK_WriteReg(R2, 0x20000164)  returns 0x00 (0000ms, 0901ms total)
T5184 001:790 JLINK_WriteReg(R3, 0x00000000)  returns 0x00 (0000ms, 0901ms total)
T5184 001:790 JLINK_WriteReg(R4, 0x00000000)  returns 0x00 (0000ms, 0901ms total)
T5184 001:790 JLINK_WriteReg(R5, 0x00000000)  returns 0x00 (0001ms, 0902ms total)
T5184 001:791 JLINK_WriteReg(R6, 0x00000000)  returns 0x00 (0000ms, 0902ms total)
T5184 001:791 JLINK_WriteReg(R7, 0x00000000)  returns 0x00 (0000ms, 0902ms total)
